T6DCC 000:014.317   SEGGER J-Link V7.96c Log File
T6DCC 000:015.439   DLL Compiled: Apr  2 2024 12:30:42
T6DCC 000:015.533   Logging started @ 2026-02-10 10:04
T6DCC 000:015.619   Process: D:\programs\Keil_v5\UV4\UV4.exe
T6DCC 000:015.711 - 15.702ms
T6DCC 000:015.807 JLINK_SetWarnOutHandler(...)
T6DCC 000:015.942 - 0.137ms
T6DCC 000:016.043 JLINK_OpenEx(...)
T6DCC 000:021.271   Firmware: J-Link V9 compiled Dec  8 2023 20:16:22
T6DCC 000:022.335   Firmware: J-Link V9 compiled Dec  8 2023 20:16:22
T6DCC 000:022.870   Decompressing FW timestamp took 304 us
T6DCC 000:029.385   Hardware: V9.70
T6DCC 000:029.630   S/N: 602713429
T6DCC 000:029.799   OEM: SEGGER
T6DCC 000:029.996   Feature(s): GDB, RDI, FlashBP, FlashDL, JFlash
T6DCC 000:031.353   Bootloader: (Could not read)
T6DCC 000:032.763   TELNET listener socket opened on port 19021
T6DCC 000:034.074   WEBSRV WEBSRV_Init(): Starting webserver thread(s)
T6DCC 000:035.149   WEBSRV Webserver running on local port 19080
T6DCC 000:036.063   Looking for J-Link GUI Server exe at: D:\programs\Keil_v5\ARM\Segger\JLinkGUIServer.exe
T6DCC 000:037.210   Looking for J-Link GUI Server exe at: D:\SEGGER\JLink_V796c\JLinkGUIServer.exe
T6DCC 000:037.603   Forking J-Link GUI Server: D:\SEGGER\JLink_V796c\JLinkGUIServer.exe
T6DCC 000:235.457   J-Link GUI Server info: "J-Link GUI server V7.96c "
T6DCC 000:252.279 - 236.191ms returns "O.K."
T6DCC 000:252.470 JLINK_GetEmuCaps()
T6DCC 000:252.563 - 0.088ms returns 0xB9FF7BBF
T6DCC 000:252.651 JLINK_TIF_GetAvailable(...)
T6DCC 000:253.032 - 0.379ms
T6DCC 000:253.197 JLINK_SetErrorOutHandler(...)
T6DCC 000:253.284 - 0.087ms
T6DCC 000:253.433 JLINK_ExecCommand("ProjectFile = "D:\Workspace\doc\HP6_BS\Proj\V1.0\Test\V1.0.0\App\Keil_project\JLinkSettings.ini"", ...). 
T6DCC 000:291.486   Ref file found at: D:\programs\Keil_v5\ARM\Segger\JLinkDevices.ref
T6DCC 000:292.148   REF file references invalid XML file: D:\SEGGER\JLink_V796c\JLinkDevices.xml
T6DCC 000:318.803   Device "CORTEX-M23" selected.
T6DCC 000:320.706 - 67.276ms returns 0x00
T6DCC 000:328.354 JLINK_ExecCommand("Device = GD32C231C8", ...). 
T6DCC 000:346.669   Device "CORTEX-M23" selected.
T6DCC 000:348.192 - 19.643ms returns 0x00
T6DCC 000:348.315 JLINK_ExecCommand("DisableConnectionTimeout", ...). 
T6DCC 000:348.404 - 0.003ms returns 0x01
T6DCC 000:348.489 JLINK_GetHardwareVersion()
T6DCC 000:348.589 - 0.084ms returns 97000
T6DCC 000:348.677 JLINK_GetDLLVersion()
T6DCC 000:348.756 - 0.079ms returns 79603
T6DCC 000:348.848 JLINK_GetOEMString(...)
T6DCC 000:349.099 JLINK_GetFirmwareString(...)
T6DCC 000:349.179 - 0.079ms
T6DCC 000:362.702 JLINK_GetDLLVersion()
T6DCC 000:362.825 - 0.122ms returns 79603
T6DCC 000:362.870 JLINK_GetCompileDateTime()
T6DCC 000:362.912 - 0.042ms
T6DCC 000:368.647 JLINK_GetFirmwareString(...)
T6DCC 000:368.771 - 0.123ms
T6DCC 000:371.977 JLINK_GetHardwareVersion()
T6DCC 000:372.064 - 0.087ms returns 97000
T6DCC 000:377.397 JLINK_GetSN()
T6DCC 000:377.508 - 0.110ms returns 602713429
T6DCC 000:381.117 JLINK_GetOEMString(...)
T6DCC 000:387.428 JLINK_TIF_Select(JLINKARM_TIF_SWD)
T6DCC 000:388.280 - 0.852ms returns 0x00
T6DCC 000:388.340 JLINK_HasError()
T6DCC 000:388.399 JLINK_SetSpeed(5000)
T6DCC 000:388.572 - 0.174ms
T6DCC 000:388.621 JLINK_GetId()
T6DCC 000:393.250   Found SW-DP with ID 0x0BF11477
T6DCC 000:401.770   DPIDR: 0x0BF11477
T6DCC 000:405.990   CoreSight SoC-400 or earlier
T6DCC 000:412.687   Scanning AP map to find all available APs
T6DCC 000:420.932   AP[1]: Stopped AP scan as end of AP map has been reached
T6DCC 000:424.469   AP[0]: AHB-AP (IDR: 0x04770025)
T6DCC 000:428.589   Iterating through AP map to find AHB-AP to use
T6DCC 000:433.259   AP[0]: Core found
T6DCC 000:438.169   AP[0]: AHB-AP ROM base: 0xE00FF000
T6DCC 000:455.135   CPUID register: 0x411CD200. Implementer code: 0x41 (ARM)
T6DCC 000:460.988   Feature set: Baseline
T6DCC 000:466.832   Cache: No cache
T6DCC 000:470.863   Found Cortex-M23 r1p0, Little endian.
T6DCC 000:471.432   -- Max. mem block: 0x00010C20
T6DCC 000:482.995   
  ***** Warning: 
T6DCC 000:483.308   Cortex-M (ARMv8-M and later): The connected J-Link (S/N 602713429) uses an old firmware module that does not handle I/D-cache correctly. Proper debugging functionality cannot be guaranteed if cache is enabled
T6DCC 000:483.414   CPU_ReadMem(4 bytes @ 0xE000EDF0)
T6DCC 000:483.931   CPU_WriteMem(4 bytes @ 0xE000EDF0)
T6DCC 000:484.294   CPU_ReadMem(4 bytes @ 0xE0002000)
T6DCC 000:488.284   FPUnit: 4 code (BP) slots and 0 literal slots
T6DCC 000:488.400   CPU_ReadMem(4 bytes @ 0xE000EDFC)
T6DCC 000:488.767   CPU_WriteMem(4 bytes @ 0xE000EDFC)
T6DCC 000:489.124   CPU_ReadMem(4 bytes @ 0xE0001000)
T6DCC 000:489.452   CPU_ReadMem(4 bytes @ 0xE0001000)
T6DCC 000:489.748   CPU_ReadMem(4 bytes @ 0xE0001028)
T6DCC 000:490.053   CPU_ReadMem(4 bytes @ 0xE0001038)
T6DCC 000:490.460   CPU_WriteMem(4 bytes @ 0xE0001000)
T6DCC 000:491.059   CPU_ReadMem(4 bytes @ 0xE000ED88)
T6DCC 000:491.530   CPU_WriteMem(4 bytes @ 0xE000ED88)
T6DCC 000:492.053   CPU_ReadMem(4 bytes @ 0xE000ED88)
T6DCC 000:492.400   CPU_WriteMem(4 bytes @ 0xE000ED88)
T6DCC 000:492.694   CPU_ReadMem(4 bytes @ 0xE000EFB8)
T6DCC 000:496.828   Security extension: not implemented
T6DCC 000:500.305   CoreSight components:
T6DCC 000:503.512   ROMTbl[0] @ E00FF000
T6DCC 000:503.623   CPU_ReadMem(64 bytes @ 0xE00FF000)
T6DCC 000:504.254   CPU_ReadMem(32 bytes @ 0xE000EFE0)
T6DCC 000:504.763   CPU_ReadMem(4 bytes @ 0xE000EFBC)
T6DCC 000:505.132   CPU_ReadMem(4 bytes @ 0xE000EFCC)
T6DCC 000:514.314   [0][0]: E000E000 CID B105900D PID 000BBD20 DEVARCH 47702A04 DEVTYPE 00 Cortex-M23
T6DCC 000:514.467   CPU_ReadMem(32 bytes @ 0xE0001FE0)
T6DCC 000:515.024   CPU_ReadMem(4 bytes @ 0xE0001FBC)
T6DCC 000:515.387   CPU_ReadMem(4 bytes @ 0xE0001FCC)
T6DCC 000:519.103   [0][1]: E0001000 CID B105900D PID 000BBD20 DEVARCH 47701A02 DEVTYPE 00 DWT
T6DCC 000:519.217   CPU_ReadMem(32 bytes @ 0xE0002FE0)
T6DCC 000:519.680   CPU_ReadMem(4 bytes @ 0xE0002FBC)
T6DCC 000:520.011   CPU_ReadMem(4 bytes @ 0xE0002FCC)
T6DCC 000:526.340   [0][2]: E0002000 CID B105900D PID 000BBD20 DEVARCH 47701A03 DEVTYPE 00 FPB
T6DCC 000:526.880 - 138.258ms returns 0x0BF11477
T6DCC 000:526.984 JLINK_GetDLLVersion()
T6DCC 000:527.027 - 0.042ms returns 79603
T6DCC 000:527.072 JLINK_CORE_GetFound()
T6DCC 000:527.126 - 0.053ms returns 0x60100FF
T6DCC 000:527.175 JLINK_GetDebugInfo(0x100 = JLINKARM_ROM_TABLE_ADDR_INDEX)
T6DCC 000:527.217   Value=0xE00FF000
T6DCC 000:527.276 - 0.101ms returns 0
T6DCC 000:530.977 JLINK_GetDebugInfo(0x100 = JLINKARM_ROM_TABLE_ADDR_INDEX)
T6DCC 000:531.065   Value=0xE00FF000
T6DCC 000:531.149 - 0.172ms returns 0
T6DCC 000:531.194 JLINK_GetDebugInfo(0x101 = JLINKARM_DEBUG_INFO_ETM_ADDR_INDEX)
T6DCC 000:531.235   Value=0x00000000
T6DCC 000:531.296 - 0.101ms returns 0
T6DCC 000:531.336 JLINK_ReadMemEx(0xE0041FF0, 0x10 Bytes, Flags = 0x02000004)
T6DCC 000:531.432   CPU_ReadMem(16 bytes @ 0xE0041FF0)
T6DCC 000:532.004   failed
T6DCC 000:532.071 - 0.735ms returns -1 (0xFFFFFFFF)
T6DCC 000:532.111 JLINK_GetDebugInfo(0x102 = JLINKARM_DEBUG_INFO_MTB_ADDR_INDEX)
T6DCC 000:532.150   Value=0x00000000
T6DCC 000:532.205 - 0.094ms returns 0
T6DCC 000:532.245 JLINK_GetDebugInfo(0x103 = JLINKARM_DEBUG_INFO_TPIU_ADDR_INDEX)
T6DCC 000:532.286   Value=0x00000000
T6DCC 000:532.343 - 0.098ms returns 0
T6DCC 000:532.382 JLINK_ReadMemEx(0xE0040FF0, 0x10 Bytes, Flags = 0x02000004)
T6DCC 000:532.424   CPU_ReadMem(16 bytes @ 0xE0040FF0)
T6DCC 000:532.983   failed
T6DCC 000:533.046 - 0.664ms returns -1 (0xFFFFFFFF)
T6DCC 000:533.088 JLINK_GetDebugInfo(0x104 = JLINKARM_DEBUG_INFO_ITM_ADDR_INDEX)
T6DCC 000:533.126   Value=0xE0000000
T6DCC 000:533.184 - 0.096ms returns 0
T6DCC 000:533.224 JLINK_GetDebugInfo(0x105 = JLINKARM_DEBUG_INFO_DWT_ADDR_INDEX)
T6DCC 000:533.262   Value=0xE0001000
T6DCC 000:533.319 - 0.094ms returns 0
T6DCC 000:533.357 JLINK_GetDebugInfo(0x106 = JLINKARM_DEBUG_INFO_FPB_ADDR_INDEX)
T6DCC 000:533.397   Value=0xE0002000
T6DCC 000:533.458 - 0.101ms returns 0
T6DCC 000:533.506 JLINK_GetDebugInfo(0x107 = JLINKARM_DEBUG_INFO_NVIC_ADDR_INDEX)
T6DCC 000:533.662   Value=0xE000E000
T6DCC 000:533.731 - 0.225ms returns 0
T6DCC 000:533.774 JLINK_GetDebugInfo(0x10C = JLINKARM_DEBUG_INFO_DBG_ADDR_INDEX)
T6DCC 000:533.812   Value=0xE000EDF0
T6DCC 000:533.870 - 0.096ms returns 0
T6DCC 000:533.910 JLINK_GetDebugInfo(0x01 = Unknown)
T6DCC 000:533.948   Value=0x00000000
T6DCC 000:534.005 - 0.094ms returns 0
T6DCC 000:534.047 JLINK_ReadMemU32(0xE000ED00, 0x1 Items)
T6DCC 000:534.092   CPU_ReadMem(4 bytes @ 0xE000ED00)
T6DCC 000:534.636   Data:  00 D2 1C 41
T6DCC 000:534.736   Debug reg: CPUID
T6DCC 000:534.800 - 0.752ms returns 1 (0x1)
T6DCC 000:534.842 JLINK_GetDebugInfo(0x10F = JLINKARM_DEBUG_INFO_HAS_CORTEX_M_SECURITY_EXT_INDEX)
T6DCC 000:534.881   Value=0x00000000
T6DCC 000:534.940 - 0.098ms returns 0
T6DCC 000:534.983 JLINK_ReadMemEx(0xE000ED74, 0x4 Bytes, Flags = 0x02000004)
T6DCC 000:535.028   CPU_ReadMem(4 bytes @ 0xE000ED74)
T6DCC 000:535.378   Data:  00 00 00 00
T6DCC 000:535.447 - 0.464ms returns 4 (0x4)
T6DCC 000:542.090 JLINK_HasError()
T6DCC 000:542.229 JLINK_SetResetType(JLINKARM_CM3_RESET_TYPE_NORMAL)
T6DCC 000:542.276 - 0.046ms returns JLINKARM_CM3_RESET_TYPE_NORMAL
T6DCC 000:542.318 JLINK_Reset()
T6DCC 000:542.394   CPU is running
T6DCC 000:542.456   CPU_WriteMem(4 bytes @ 0xE000EDF0)
T6DCC 000:542.917   CPU_ReadMem(4 bytes @ 0xE000ED44)
T6DCC 000:543.214   CPU is running
T6DCC 000:543.280   CPU_WriteMem(4 bytes @ 0xE000EDFC)
T6DCC 000:547.378   Reset: Halt core after reset via DEMCR.VC_CORERESET.
T6DCC 000:554.621   Reset: Reset device via AIRCR.SYSRESETREQ.
T6DCC 000:554.761   CPU is running
T6DCC 000:554.829   CPU_WriteMem(4 bytes @ 0xE000ED0C)
T6DCC 000:608.565   CPU_ReadMem(4 bytes @ 0xE000EDF0)
T6DCC 000:609.111   CPU_ReadMem(4 bytes @ 0xE000EDF0)
T6DCC 000:611.582   CPU_WriteMem(4 bytes @ 0xE000EDFC)
T6DCC 000:618.288   CPU_ReadMem(4 bytes @ 0xE000EDF0)
T6DCC 000:620.661   CPU_ReadMem(4 bytes @ 0xE000EE08)
T6DCC 000:621.103   CPU_WriteMem(4 bytes @ 0xE0002000)
T6DCC 000:621.539   CPU_ReadMem(4 bytes @ 0xE000EDFC)
T6DCC 000:621.961   CPU_ReadMem(4 bytes @ 0xE0001000)
T6DCC 000:622.363   CPU_WriteMem(4 bytes @ 0xE0001000)
T6DCC 000:622.804   CPU_ReadMem(4 bytes @ 0xE000EE08)
T6DCC 000:623.267 - 80.948ms
T6DCC 000:623.386 JLINK_Halt()
T6DCC 000:623.473 - 0.086ms returns 0x00
T6DCC 000:623.567 JLINK_ReadMemU32(0xE000EDF0, 0x1 Items)
T6DCC 000:623.657   CPU_ReadMem(4 bytes @ 0xE000EDF0)
T6DCC 000:624.099   Data:  03 00 03 00
T6DCC 000:624.283   Debug reg: DHCSR
T6DCC 000:624.405 - 0.838ms returns 1 (0x1)
T6DCC 000:624.510 JLINK_WriteU32_64(0xE000EDF0, 0xA05F0003)
T6DCC 000:624.590   Debug reg: DHCSR
T6DCC 000:626.162   CPU_WriteMem(4 bytes @ 0xE000EDF0)
T6DCC 000:626.744 - 2.244ms returns 0 (0x00000000)
T6DCC 000:626.900 JLINK_WriteU32_64(0xE000EDFC, 0x01000000)
T6DCC 000:626.989   Debug reg: DEMCR
T6DCC 000:627.122   CPU_WriteMem(4 bytes @ 0xE000EDFC)
T6DCC 000:627.579 - 0.679ms returns 0 (0x00000000)
T6DCC 000:666.062 JLINK_GetHWStatus(...)
T6DCC 000:666.640 - 0.577ms returns 0
T6DCC 000:691.774 JLINK_GetNumBPUnits(Type = 0xFFFFFF00)
T6DCC 000:691.943 - 0.168ms returns 0x04
T6DCC 000:692.009 JLINK_GetNumBPUnits(Type = 0xF0)
T6DCC 000:692.071 - 0.062ms returns 0x2000
T6DCC 000:692.140 JLINK_GetNumWPUnits()
T6DCC 000:692.205 - 0.064ms returns 2
T6DCC 000:702.995 JLINK_GetSpeed()
T6DCC 000:703.108 - 0.112ms returns 4000
T6DCC 000:718.931 JLINK_ReadMemU32(0xE000E004, 0x1 Items)
T6DCC 000:719.062   CPU_ReadMem(4 bytes @ 0xE000E004)
T6DCC 000:719.466   Data:  01 00 00 00
T6DCC 000:719.534 - 0.603ms returns 1 (0x1)
T6DCC 000:719.578 JLINK_ReadMemU32(0xE000E004, 0x1 Items)
T6DCC 000:719.621   CPU_ReadMem(4 bytes @ 0xE000E004)
T6DCC 000:720.095   Data:  01 00 00 00
T6DCC 000:720.197 - 0.618ms returns 1 (0x1)
T6DCC 000:720.248 JLINK_Halt()
T6DCC 000:720.289 - 0.041ms returns 0x00
T6DCC 000:720.343 JLINK_IsHalted()
T6DCC 000:720.420 - 0.076ms returns TRUE
T6DCC 000:725.854 JLINK_WriteMem(0x20000000, 0x31C Bytes, ...)
T6DCC 000:725.932   Data:  00 BE 0A E0 0D 78 2D 06 68 40 08 24 40 00 00 D3 ...
T6DCC 000:726.815   CPU_WriteMem(796 bytes @ 0x20000000)
T6DCC 000:730.027 - 4.172ms returns 0x31C
T6DCC 000:730.210 JLINK_HasError()
T6DCC 000:730.291 JLINK_WriteReg(R0, 0x08000000)
T6DCC 000:730.343   CPU_ReadMem(4 bytes @ 0xE000EE08)
T6DCC 000:730.679 - 0.409ms returns 0
T6DCC 000:730.730 JLINK_WriteReg(R1, 0x00B71B00)
T6DCC 000:730.776 - 0.046ms returns 0
T6DCC 000:730.822 JLINK_WriteReg(R2, 0x00000001)
T6DCC 000:730.874 - 0.052ms returns 0
T6DCC 000:730.919 JLINK_WriteReg(R3, 0x00000000)
T6DCC 000:730.964 - 0.045ms returns 0
T6DCC 000:731.008 JLINK_WriteReg(R4, 0x00000000)
T6DCC 000:731.054 - 0.045ms returns 0
T6DCC 000:731.100 JLINK_WriteReg(R5, 0x00000000)
T6DCC 000:731.147 - 0.047ms returns 0
T6DCC 000:731.191 JLINK_WriteReg(R6, 0x00000000)
T6DCC 000:731.235 - 0.044ms returns 0
T6DCC 000:731.279 JLINK_WriteReg(R7, 0x00000000)
T6DCC 000:731.324 - 0.045ms returns 0
T6DCC 000:731.366 JLINK_WriteReg(R8, 0x00000000)
T6DCC 000:731.409 - 0.042ms returns 0
T6DCC 000:731.452 JLINK_WriteReg(R9, 0x20000318)
T6DCC 000:731.499 - 0.046ms returns 0
T6DCC 000:731.542 JLINK_WriteReg(R10, 0x00000000)
T6DCC 000:731.602 - 0.060ms returns 0
T6DCC 000:731.647 JLINK_WriteReg(R11, 0x00000000)
T6DCC 000:731.694 - 0.046ms returns 0
T6DCC 000:731.738 JLINK_WriteReg(R12, 0x00000000)
T6DCC 000:731.781 - 0.042ms returns 0
T6DCC 000:731.824 JLINK_WriteReg(R13 (SP), 0x20001000)
T6DCC 000:731.869 - 0.045ms returns 0
T6DCC 000:731.912 JLINK_WriteReg(R14, 0x20000001)
T6DCC 000:731.955 - 0.043ms returns 0
T6DCC 000:732.008 JLINK_WriteReg(R15 (PC), 0x20000058)
T6DCC 000:732.052 - 0.054ms returns 0
T6DCC 000:732.097 JLINK_WriteReg(XPSR, 0x01000000)
T6DCC 000:732.143 - 0.047ms returns 0
T6DCC 000:732.187 JLINK_WriteReg(MSP, 0x20001000)
T6DCC 000:732.233 - 0.046ms returns 0
T6DCC 000:732.279 JLINK_WriteReg(PSP, 0x20001000)
T6DCC 000:732.324 - 0.044ms returns 0
T6DCC 000:732.363 JLINK_WriteReg(CFBP, 0x00000000)
T6DCC 000:732.414 - 0.050ms returns 0
T6DCC 000:732.455 JLINK_SetBPEx(Addr = 0x20000000, Type = 0xFFFFFFF2)
T6DCC 000:732.496 - 0.041ms returns 0x00000001
T6DCC 000:732.537 JLINK_Go()
T6DCC 000:732.581   CPU_WriteMem(4 bytes @ 0xE0002000)
T6DCC 000:733.035   CPU_ReadMem(4 bytes @ 0xE0001000)
T6DCC 000:733.415   CPU_WriteMem(4 bytes @ 0xE0001000)
T6DCC 000:733.851   CPU_WriteMem(4 bytes @ 0xE0002008)
T6DCC 000:733.935   CPU_WriteMem(4 bytes @ 0xE000200C)
T6DCC 000:734.007   CPU_WriteMem(4 bytes @ 0xE0002010)
T6DCC 000:734.338   CPU_WriteMem(4 bytes @ 0xE0002014)
T6DCC 000:735.148   CPU_WriteMem(4 bytes @ 0xE0001004)
T6DCC 000:743.335   Memory map 'after startup completion point' is active
T6DCC 000:743.497 - 10.959ms
T6DCC 000:743.564 JLINK_IsHalted()
T6DCC 000:745.584 - 2.019ms returns TRUE
T6DCC 000:745.661 JLINK_ReadReg(R15 (PC))
T6DCC 000:745.719   CPU_ReadMem(4 bytes @ 0xE000EE08)
T6DCC 000:746.094 - 0.432ms returns 0x20000000
T6DCC 000:746.185 JLINK_ClrBPEx(BPHandle = 0x00000001)
T6DCC 000:746.255 - 0.070ms returns 0x00
T6DCC 000:746.321 JLINK_ReadReg(R0)
T6DCC 000:746.383 - 0.061ms returns 0x00000000
T6DCC 000:746.923 JLINK_HasError()
T6DCC 000:747.033 JLINK_WriteReg(R0, 0x08000000)
T6DCC 000:747.104 - 0.070ms returns 0
T6DCC 000:747.188 JLINK_WriteReg(R1, 0x00B71B00)
T6DCC 000:747.258 - 0.069ms returns 0
T6DCC 000:747.320 JLINK_WriteReg(R2, 0x00000001)
T6DCC 000:747.378 - 0.058ms returns 0
T6DCC 000:747.441 JLINK_WriteReg(R3, 0x00000000)
T6DCC 000:747.507 - 0.065ms returns 0
T6DCC 000:747.567 JLINK_WriteReg(R4, 0x00000000)
T6DCC 000:747.624 - 0.057ms returns 0
T6DCC 000:747.687 JLINK_WriteReg(R5, 0x00000000)
T6DCC 000:747.748 - 0.060ms returns 0
T6DCC 000:747.810 JLINK_WriteReg(R6, 0x00000000)
T6DCC 000:747.884 - 0.074ms returns 0
T6DCC 000:747.945 JLINK_WriteReg(R7, 0x00000000)
T6DCC 000:748.004 - 0.059ms returns 0
T6DCC 000:748.065 JLINK_WriteReg(R8, 0x00000000)
T6DCC 000:748.122 - 0.057ms returns 0
T6DCC 000:748.186 JLINK_WriteReg(R9, 0x20000318)
T6DCC 000:748.250 - 0.064ms returns 0
T6DCC 000:748.308 JLINK_WriteReg(R10, 0x00000000)
T6DCC 000:748.518 - 0.209ms returns 0
T6DCC 000:748.578 JLINK_WriteReg(R11, 0x00000000)
T6DCC 000:748.634 - 0.056ms returns 0
T6DCC 000:748.691 JLINK_WriteReg(R12, 0x00000000)
T6DCC 000:748.748 - 0.056ms returns 0
T6DCC 000:748.805 JLINK_WriteReg(R13 (SP), 0x20001000)
T6DCC 000:748.862 - 0.057ms returns 0
T6DCC 000:748.919 JLINK_WriteReg(R14, 0x20000001)
T6DCC 000:748.976 - 0.056ms returns 0
T6DCC 000:749.033 JLINK_WriteReg(R15 (PC), 0x20000118)
T6DCC 000:749.088 - 0.055ms returns 0
T6DCC 000:749.145 JLINK_WriteReg(XPSR, 0x01000000)
T6DCC 000:749.198 - 0.052ms returns 0
T6DCC 000:749.250 JLINK_WriteReg(MSP, 0x20001000)
T6DCC 000:749.301 - 0.051ms returns 0
T6DCC 000:749.352 JLINK_WriteReg(PSP, 0x20001000)
T6DCC 000:749.404 - 0.051ms returns 0
T6DCC 000:749.458 JLINK_WriteReg(CFBP, 0x00000000)
T6DCC 000:749.509 - 0.051ms returns 0
T6DCC 000:749.562 JLINK_SetBPEx(Addr = 0x20000000, Type = 0xFFFFFFF2)
T6DCC 000:749.615 - 0.053ms returns 0x00000002
T6DCC 000:749.665 JLINK_Go()
T6DCC 000:749.721   CPU_WriteMem(4 bytes @ 0xE0002000)
T6DCC 000:750.216   CPU_ReadMem(4 bytes @ 0xE0001000)
T6DCC 000:752.684 - 3.018ms
T6DCC 000:752.777 JLINK_IsHalted()
T6DCC 000:753.120 - 0.342ms returns FALSE
T6DCC 000:753.183 JLINK_HasError()
T6DCC 000:800.743 JLINK_IsHalted()
T6DCC 000:802.802 - 2.058ms returns TRUE
T6DCC 000:802.886 JLINK_ReadReg(R15 (PC))
T6DCC 000:802.955   CPU_ReadMem(4 bytes @ 0xE000EE08)
T6DCC 000:803.354 - 0.468ms returns 0x20000000
T6DCC 000:803.436 JLINK_ClrBPEx(BPHandle = 0x00000002)
T6DCC 000:803.495 - 0.056ms returns 0x00
T6DCC 000:803.560 JLINK_ReadReg(R0)
T6DCC 000:803.626 - 0.066ms returns 0x00000000
T6DCC 000:857.950 JLINK_HasError()
T6DCC 000:858.141 JLINK_WriteReg(R0, 0x00000001)
T6DCC 000:858.236 - 0.094ms returns 0
T6DCC 000:858.325 JLINK_WriteReg(R1, 0x00B71B00)
T6DCC 000:858.404 - 0.079ms returns 0
T6DCC 000:858.478 JLINK_WriteReg(R2, 0x00000001)
T6DCC 000:858.562 - 0.083ms returns 0
T6DCC 000:858.645 JLINK_WriteReg(R3, 0x00000000)
T6DCC 000:858.723 - 0.078ms returns 0
T6DCC 000:858.800 JLINK_WriteReg(R4, 0x00000000)
T6DCC 000:859.041 - 0.238ms returns 0
T6DCC 000:859.153 JLINK_WriteReg(R5, 0x00000000)
T6DCC 000:859.234 - 0.080ms returns 0
T6DCC 000:859.310 JLINK_WriteReg(R6, 0x00000000)
T6DCC 000:859.385 - 0.075ms returns 0
T6DCC 000:859.458 JLINK_WriteReg(R7, 0x00000000)
T6DCC 000:859.529 - 0.071ms returns 0
T6DCC 000:859.601 JLINK_WriteReg(R8, 0x00000000)
T6DCC 000:859.686 - 0.084ms returns 0
T6DCC 000:859.768 JLINK_WriteReg(R9, 0x20000318)
T6DCC 000:859.842 - 0.074ms returns 0
T6DCC 000:859.927 JLINK_WriteReg(R10, 0x00000000)
T6DCC 000:860.001 - 0.073ms returns 0
T6DCC 000:860.090 JLINK_WriteReg(R11, 0x00000000)
T6DCC 000:860.172 - 0.082ms returns 0
T6DCC 000:860.246 JLINK_WriteReg(R12, 0x00000000)
T6DCC 000:860.321 - 0.075ms returns 0
T6DCC 000:860.395 JLINK_WriteReg(R13 (SP), 0x20001000)
T6DCC 000:860.470 - 0.074ms returns 0
T6DCC 000:860.544 JLINK_WriteReg(R14, 0x20000001)
T6DCC 000:860.617 - 0.073ms returns 0
T6DCC 000:860.709 JLINK_WriteReg(R15 (PC), 0x200000F8)
T6DCC 000:860.787 - 0.078ms returns 0
T6DCC 000:860.869 JLINK_WriteReg(XPSR, 0x01000000)
T6DCC 000:860.942 - 0.073ms returns 0
T6DCC 000:861.015 JLINK_WriteReg(MSP, 0x20001000)
T6DCC 000:861.088 - 0.072ms returns 0
T6DCC 000:861.162 JLINK_WriteReg(PSP, 0x20001000)
T6DCC 000:861.238 - 0.076ms returns 0
T6DCC 000:861.311 JLINK_WriteReg(CFBP, 0x00000000)
T6DCC 000:861.391 - 0.080ms returns 0
T6DCC 000:861.474 JLINK_SetBPEx(Addr = 0x20000000, Type = 0xFFFFFFF2)
T6DCC 000:861.559 - 0.085ms returns 0x00000003
T6DCC 000:861.635 JLINK_Go()
T6DCC 000:861.740   CPU_WriteMem(4 bytes @ 0xE0002000)
T6DCC 000:862.239   CPU_ReadMem(4 bytes @ 0xE0001000)
T6DCC 000:864.601 - 2.964ms
T6DCC 000:864.767 JLINK_IsHalted()
T6DCC 000:866.830 - 2.062ms returns TRUE
T6DCC 000:866.922 JLINK_ReadReg(R15 (PC))
T6DCC 000:867.011   CPU_ReadMem(4 bytes @ 0xE000EE08)
T6DCC 000:867.456 - 0.533ms returns 0x20000000
T6DCC 000:867.541 JLINK_ClrBPEx(BPHandle = 0x00000003)
T6DCC 000:867.637 - 0.096ms returns 0x00
T6DCC 000:867.721 JLINK_ReadReg(R0)
T6DCC 000:867.802 - 0.081ms returns 0x00000000
T6DCC 000:884.986 JLINK_WriteMem(0x20000000, 0x31C Bytes, ...)
T6DCC 000:885.115   Data:  00 BE 0A E0 0D 78 2D 06 68 40 08 24 40 00 00 D3 ...
T6DCC 000:885.261   CPU_WriteMem(796 bytes @ 0x20000000)
T6DCC 000:888.406 - 3.418ms returns 0x31C
T6DCC 000:888.663 JLINK_HasError()
T6DCC 000:888.756 JLINK_WriteReg(R0, 0x08000000)
T6DCC 000:888.847 - 0.091ms returns 0
T6DCC 000:888.929 JLINK_WriteReg(R1, 0x00B71B00)
T6DCC 000:889.009 - 0.080ms returns 0
T6DCC 000:889.088 JLINK_WriteReg(R2, 0x00000002)
T6DCC 000:889.168 - 0.079ms returns 0
T6DCC 000:889.248 JLINK_WriteReg(R3, 0x00000000)
T6DCC 000:889.326 - 0.078ms returns 0
T6DCC 000:889.408 JLINK_WriteReg(R4, 0x00000000)
T6DCC 000:889.489 - 0.081ms returns 0
T6DCC 000:889.568 JLINK_WriteReg(R5, 0x00000000)
T6DCC 000:889.645 - 0.077ms returns 0
T6DCC 000:889.726 JLINK_WriteReg(R6, 0x00000000)
T6DCC 000:889.807 - 0.081ms returns 0
T6DCC 000:889.891 JLINK_WriteReg(R7, 0x00000000)
T6DCC 000:889.998 - 0.106ms returns 0
T6DCC 000:890.085 JLINK_WriteReg(R8, 0x00000000)
T6DCC 000:890.174 - 0.089ms returns 0
T6DCC 000:890.269 JLINK_WriteReg(R9, 0x20000318)
T6DCC 000:890.478 - 0.207ms returns 0
T6DCC 000:890.787 JLINK_WriteReg(R10, 0x00000000)
T6DCC 000:890.894 - 0.107ms returns 0
T6DCC 000:890.995 JLINK_WriteReg(R11, 0x00000000)
T6DCC 000:891.177 - 0.181ms returns 0
T6DCC 000:891.337 JLINK_WriteReg(R12, 0x00000000)
T6DCC 000:891.460 - 0.123ms returns 0
T6DCC 000:891.570 JLINK_WriteReg(R13 (SP), 0x20001000)
T6DCC 000:891.681 - 0.110ms returns 0
T6DCC 000:891.769 JLINK_WriteReg(R14, 0x20000001)
T6DCC 000:891.881 - 0.112ms returns 0
T6DCC 000:891.977 JLINK_WriteReg(R15 (PC), 0x20000058)
T6DCC 000:892.064 - 0.087ms returns 0
T6DCC 000:892.151 JLINK_WriteReg(XPSR, 0x01000000)
T6DCC 000:892.241 - 0.090ms returns 0
T6DCC 000:892.350 JLINK_WriteReg(MSP, 0x20001000)
T6DCC 000:892.442 - 0.091ms returns 0
T6DCC 000:892.538 JLINK_WriteReg(PSP, 0x20001000)
T6DCC 000:892.626 - 0.088ms returns 0
T6DCC 000:892.720 JLINK_WriteReg(CFBP, 0x00000000)
T6DCC 000:892.812 - 0.091ms returns 0
T6DCC 000:892.897 JLINK_SetBPEx(Addr = 0x20000000, Type = 0xFFFFFFF2)
T6DCC 000:892.982 - 0.085ms returns 0x00000004
T6DCC 000:893.066 JLINK_Go()
T6DCC 000:893.167   CPU_WriteMem(4 bytes @ 0xE0002000)
T6DCC 000:893.806   CPU_ReadMem(4 bytes @ 0xE0001000)
T6DCC 000:896.270 - 3.202ms
T6DCC 000:896.402 JLINK_IsHalted()
T6DCC 000:898.435 - 2.030ms returns TRUE
T6DCC 000:898.604 JLINK_ReadReg(R15 (PC))
T6DCC 000:898.706   CPU_ReadMem(4 bytes @ 0xE000EE08)
T6DCC 000:899.268 - 0.662ms returns 0x20000000
T6DCC 000:899.466 JLINK_ClrBPEx(BPHandle = 0x00000004)
T6DCC 000:899.578 - 0.112ms returns 0x00
T6DCC 000:899.690 JLINK_ReadReg(R0)
T6DCC 000:899.789 - 0.099ms returns 0x00000000
T6DCC 000:900.844 JLINK_WriteMem(0x2000031C, 0xE4 Bytes, ...)
T6DCC 000:900.993   Data:  28 0D 00 20 F1 00 00 08 DD 0D 00 08 D5 0C 00 08 ...
T6DCC 000:901.157   CPU_WriteMem(228 bytes @ 0x2000031C)
T6DCC 000:902.491 - 1.644ms returns 0xE4
T6DCC 000:902.597 JLINK_WriteMem(0x20000400, 0x31C Bytes, ...)
T6DCC 000:902.681   Data:  00 48 00 47 29 21 00 08 28 0D 00 20 0B 48 02 68 ...
T6DCC 000:902.828   CPU_WriteMem(796 bytes @ 0x20000400)
T6DCC 000:905.985 - 3.387ms returns 0x31C
T6DCC 000:906.084 JLINK_HasError()
T6DCC 000:906.169 JLINK_WriteReg(R0, 0x08000000)
T6DCC 000:906.259 - 0.090ms returns 0
T6DCC 000:906.416 JLINK_WriteReg(R1, 0x00000400)
T6DCC 000:906.524 - 0.108ms returns 0
T6DCC 000:906.607 JLINK_WriteReg(R2, 0x2000031C)
T6DCC 000:906.685 - 0.078ms returns 0
T6DCC 000:906.767 JLINK_WriteReg(R3, 0x00000000)
T6DCC 000:906.847 - 0.080ms returns 0
T6DCC 000:906.971 JLINK_WriteReg(R4, 0x00000000)
T6DCC 000:907.062 - 0.091ms returns 0
T6DCC 000:907.150 JLINK_WriteReg(R5, 0x00000000)
T6DCC 000:907.240 - 0.090ms returns 0
T6DCC 000:907.323 JLINK_WriteReg(R6, 0x00000000)
T6DCC 000:907.408 - 0.085ms returns 0
T6DCC 000:907.497 JLINK_WriteReg(R7, 0x00000000)
T6DCC 000:907.609 - 0.112ms returns 0
T6DCC 000:907.694 JLINK_WriteReg(R8, 0x00000000)
T6DCC 000:907.778 - 0.084ms returns 0
T6DCC 000:907.865 JLINK_WriteReg(R9, 0x20000318)
T6DCC 000:907.953 - 0.087ms returns 0
T6DCC 000:908.065 JLINK_WriteReg(R10, 0x00000000)
T6DCC 000:908.151 - 0.085ms returns 0
T6DCC 000:908.236 JLINK_WriteReg(R11, 0x00000000)
T6DCC 000:908.321 - 0.085ms returns 0
T6DCC 000:908.406 JLINK_WriteReg(R12, 0x00000000)
T6DCC 000:908.487 - 0.080ms returns 0
T6DCC 000:908.573 JLINK_WriteReg(R13 (SP), 0x20001000)
T6DCC 000:908.656 - 0.084ms returns 0
T6DCC 000:908.739 JLINK_WriteReg(R14, 0x20000001)
T6DCC 000:908.821 - 0.081ms returns 0
T6DCC 000:908.906 JLINK_WriteReg(R15 (PC), 0x20000238)
T6DCC 000:908.989 - 0.084ms returns 0
T6DCC 000:909.071 JLINK_WriteReg(XPSR, 0x01000000)
T6DCC 000:909.151 - 0.079ms returns 0
T6DCC 000:909.434 JLINK_WriteReg(MSP, 0x20001000)
T6DCC 000:909.556 - 0.122ms returns 0
T6DCC 000:909.648 JLINK_WriteReg(PSP, 0x20001000)
T6DCC 000:909.735 - 0.087ms returns 0
T6DCC 000:909.823 JLINK_WriteReg(CFBP, 0x00000000)
T6DCC 000:909.915 - 0.091ms returns 0
T6DCC 000:910.004 JLINK_SetBPEx(Addr = 0x20000000, Type = 0xFFFFFFF2)
T6DCC 000:910.098 - 0.094ms returns 0x00000005
T6DCC 000:910.187 JLINK_Go()
T6DCC 000:910.289   CPU_WriteMem(4 bytes @ 0xE0002000)
T6DCC 000:910.880   CPU_ReadMem(4 bytes @ 0xE0001000)
T6DCC 000:913.406 - 3.216ms
T6DCC 000:913.595 JLINK_IsHalted()
T6DCC 000:914.109 - 0.512ms returns FALSE
T6DCC 000:914.314 JLINK_HasError()
T6DCC 000:946.615 JLINK_IsHalted()
T6DCC 000:948.721 - 2.105ms returns TRUE
T6DCC 000:948.783 JLINK_ReadReg(R15 (PC))
T6DCC 000:948.835   CPU_ReadMem(4 bytes @ 0xE000EE08)
T6DCC 000:949.198 - 0.414ms returns 0x20000000
T6DCC 000:949.251 JLINK_ClrBPEx(BPHandle = 0x00000005)
T6DCC 000:949.297 - 0.045ms returns 0x00
T6DCC 000:949.343 JLINK_ReadReg(R0)
T6DCC 000:949.390 - 0.047ms returns 0x00000000
T6DCC 000:950.189 JLINK_WriteMem(0x2000031C, 0xE4 Bytes, ...)
T6DCC 000:950.278   Data:  04 DB 08 46 20 3A D0 40 00 21 10 BD 0B 46 D3 40 ...
T6DCC 000:950.375   CPU_WriteMem(228 bytes @ 0x2000031C)
T6DCC 000:951.677 - 1.487ms returns 0xE4
T6DCC 000:951.773 JLINK_WriteMem(0x20000400, 0x31C Bytes, ...)
T6DCC 000:951.842   Data:  0A 30 02 D5 00 20 01 46 E9 E7 01 05 10 19 69 41 ...
T6DCC 000:951.939   CPU_WriteMem(796 bytes @ 0x20000400)
T6DCC 000:955.010 - 3.235ms returns 0x31C
T6DCC 000:955.230 JLINK_HasError()
T6DCC 000:955.341 JLINK_WriteReg(R0, 0x08000400)
T6DCC 000:955.457 - 0.116ms returns 0
T6DCC 000:955.553 JLINK_WriteReg(R1, 0x00000400)
T6DCC 000:955.643 - 0.090ms returns 0
T6DCC 000:955.740 JLINK_WriteReg(R2, 0x2000031C)
T6DCC 000:955.836 - 0.096ms returns 0
T6DCC 000:955.931 JLINK_WriteReg(R3, 0x00000000)
T6DCC 000:956.022 - 0.091ms returns 0
T6DCC 000:956.116 JLINK_WriteReg(R4, 0x00000000)
T6DCC 000:956.203 - 0.086ms returns 0
T6DCC 000:956.292 JLINK_WriteReg(R5, 0x00000000)
T6DCC 000:956.382 - 0.090ms returns 0
T6DCC 000:956.472 JLINK_WriteReg(R6, 0x00000000)
T6DCC 000:956.563 - 0.091ms returns 0
T6DCC 000:956.655 JLINK_WriteReg(R7, 0x00000000)
T6DCC 000:956.773 - 0.117ms returns 0
T6DCC 000:956.863 JLINK_WriteReg(R8, 0x00000000)
T6DCC 000:957.104 - 0.238ms returns 0
T6DCC 000:957.310 JLINK_WriteReg(R9, 0x20000318)
T6DCC 000:957.411 - 0.101ms returns 0
T6DCC 000:957.516 JLINK_WriteReg(R10, 0x00000000)
T6DCC 000:957.627 - 0.110ms returns 0
T6DCC 000:957.722 JLINK_WriteReg(R11, 0x00000000)
T6DCC 000:957.817 - 0.094ms returns 0
T6DCC 000:957.910 JLINK_WriteReg(R12, 0x00000000)
T6DCC 000:958.003 - 0.092ms returns 0
T6DCC 000:958.095 JLINK_WriteReg(R13 (SP), 0x20001000)
T6DCC 000:958.192 - 0.096ms returns 0
T6DCC 000:958.295 JLINK_WriteReg(R14, 0x20000001)
T6DCC 000:958.407 - 0.112ms returns 0
T6DCC 000:958.523 JLINK_WriteReg(R15 (PC), 0x20000238)
T6DCC 000:958.643 - 0.120ms returns 0
T6DCC 000:958.748 JLINK_WriteReg(XPSR, 0x01000000)
T6DCC 000:958.858 - 0.110ms returns 0
T6DCC 000:958.962 JLINK_WriteReg(MSP, 0x20001000)
T6DCC 000:959.153 - 0.191ms returns 0
T6DCC 000:959.278 JLINK_WriteReg(PSP, 0x20001000)
T6DCC 000:959.381 - 0.103ms returns 0
T6DCC 000:959.483 JLINK_WriteReg(CFBP, 0x00000000)
T6DCC 000:959.613 - 0.129ms returns 0
T6DCC 000:959.722 JLINK_SetBPEx(Addr = 0x20000000, Type = 0xFFFFFFF2)
T6DCC 000:959.841 - 0.120ms returns 0x00000006
T6DCC 000:960.048 JLINK_Go()
T6DCC 000:960.175   CPU_WriteMem(4 bytes @ 0xE0002000)
T6DCC 000:960.849   CPU_ReadMem(4 bytes @ 0xE0001000)
T6DCC 000:963.404 - 3.355ms
T6DCC 000:963.485 JLINK_IsHalted()
T6DCC 000:963.833 - 0.347ms returns FALSE
T6DCC 000:963.903 JLINK_HasError()
T6DCC 000:965.170 JLINK_IsHalted()
T6DCC 000:965.531 - 0.360ms returns FALSE
T6DCC 000:965.591 JLINK_HasError()
T6DCC 000:967.159 JLINK_IsHalted()
T6DCC 000:967.550 - 0.391ms returns FALSE
T6DCC 000:967.631 JLINK_HasError()
T6DCC 000:969.104 JLINK_IsHalted()
T6DCC 000:969.559 - 0.454ms returns FALSE
T6DCC 000:969.707 JLINK_HasError()
T6DCC 000:971.187 JLINK_IsHalted()
T6DCC 000:971.639 - 0.450ms returns FALSE
T6DCC 000:971.754 JLINK_HasError()
T6DCC 000:973.341 JLINK_IsHalted()
T6DCC 000:973.867 - 0.523ms returns FALSE
T6DCC 000:973.996 JLINK_HasError()
T6DCC 000:975.820 JLINK_IsHalted()
T6DCC 000:976.504 - 0.684ms returns FALSE
T6DCC 000:976.637 JLINK_HasError()
T6DCC 000:977.955 JLINK_IsHalted()
T6DCC 000:978.390 - 0.433ms returns FALSE
T6DCC 000:978.524 JLINK_HasError()
T6DCC 000:980.244 JLINK_IsHalted()
T6DCC 000:982.252 - 2.008ms returns TRUE
T6DCC 000:982.326 JLINK_ReadReg(R15 (PC))
T6DCC 000:982.376   CPU_ReadMem(4 bytes @ 0xE000EE08)
T6DCC 000:982.755 - 0.429ms returns 0x20000000
T6DCC 000:982.809 JLINK_ClrBPEx(BPHandle = 0x00000006)
T6DCC 000:982.853 - 0.043ms returns 0x00
T6DCC 000:982.896 JLINK_ReadReg(R0)
T6DCC 000:982.938 - 0.042ms returns 0x00000000
T6DCC 000:983.610 JLINK_WriteMem(0x2000031C, 0xE4 Bytes, ...)
T6DCC 000:983.681   Data:  34 00 00 20 80 B5 01 F0 93 FE 00 F0 6D F9 00 F0 ...
T6DCC 000:983.753   CPU_WriteMem(228 bytes @ 0x2000031C)
T6DCC 000:985.003 - 1.390ms returns 0xE4
T6DCC 000:985.144 JLINK_WriteMem(0x20000400, 0x31C Bytes, ...)
T6DCC 000:985.241   Data:  09 78 00 F0 39 F8 00 98 17 49 09 78 00 F0 34 F8 ...
T6DCC 000:985.379   CPU_WriteMem(796 bytes @ 0x20000400)
T6DCC 000:988.616 - 3.470ms returns 0x31C
T6DCC 000:988.790 JLINK_HasError()
T6DCC 000:988.906 JLINK_WriteReg(R0, 0x08000800)
T6DCC 000:989.012 - 0.106ms returns 0
T6DCC 000:989.104 JLINK_WriteReg(R1, 0x00000400)
T6DCC 000:989.192 - 0.087ms returns 0
T6DCC 000:989.308 JLINK_WriteReg(R2, 0x2000031C)
T6DCC 000:989.401 - 0.093ms returns 0
T6DCC 000:989.505 JLINK_WriteReg(R3, 0x00000000)
T6DCC 000:989.593 - 0.088ms returns 0
T6DCC 000:989.698 JLINK_WriteReg(R4, 0x00000000)
T6DCC 000:989.795 - 0.097ms returns 0
T6DCC 000:989.900 JLINK_WriteReg(R5, 0x00000000)
T6DCC 000:989.987 - 0.086ms returns 0
T6DCC 000:990.082 JLINK_WriteReg(R6, 0x00000000)
T6DCC 000:990.182 - 0.100ms returns 0
T6DCC 000:990.350 JLINK_WriteReg(R7, 0x00000000)
T6DCC 000:990.466 - 0.116ms returns 0
T6DCC 000:990.551 JLINK_WriteReg(R8, 0x00000000)
T6DCC 000:990.640 - 0.089ms returns 0
T6DCC 000:990.729 JLINK_WriteReg(R9, 0x20000318)
T6DCC 000:990.810 - 0.081ms returns 0
T6DCC 000:990.897 JLINK_WriteReg(R10, 0x00000000)
T6DCC 000:990.979 - 0.082ms returns 0
T6DCC 000:991.064 JLINK_WriteReg(R11, 0x00000000)
T6DCC 000:991.144 - 0.080ms returns 0
T6DCC 000:991.236 JLINK_WriteReg(R12, 0x00000000)
T6DCC 000:991.324 - 0.088ms returns 0
T6DCC 000:991.410 JLINK_WriteReg(R13 (SP), 0x20001000)
T6DCC 000:991.501 - 0.091ms returns 0
T6DCC 000:991.588 JLINK_WriteReg(R14, 0x20000001)
T6DCC 000:991.671 - 0.082ms returns 0
T6DCC 000:991.754 JLINK_WriteReg(R15 (PC), 0x20000238)
T6DCC 000:991.837 - 0.083ms returns 0
T6DCC 000:991.933 JLINK_WriteReg(XPSR, 0x01000000)
T6DCC 000:992.058 - 0.125ms returns 0
T6DCC 000:992.153 JLINK_WriteReg(MSP, 0x20001000)
T6DCC 000:992.248 - 0.095ms returns 0
T6DCC 000:992.339 JLINK_WriteReg(PSP, 0x20001000)
T6DCC 000:992.421 - 0.081ms returns 0
T6DCC 000:992.505 JLINK_WriteReg(CFBP, 0x00000000)
T6DCC 000:992.786 - 0.280ms returns 0
T6DCC 000:992.899 JLINK_SetBPEx(Addr = 0x20000000, Type = 0xFFFFFFF2)
T6DCC 000:992.987 - 0.088ms returns 0x00000007
T6DCC 000:993.082 JLINK_Go()
T6DCC 000:993.177   CPU_WriteMem(4 bytes @ 0xE0002000)
T6DCC 000:993.720   CPU_ReadMem(4 bytes @ 0xE0001000)
T6DCC 000:996.034 - 2.951ms
T6DCC 000:996.130 JLINK_IsHalted()
T6DCC 000:996.493 - 0.363ms returns FALSE
T6DCC 000:996.581 JLINK_HasError()
T6DCC 000:998.596 JLINK_IsHalted()
T6DCC 000:999.008 - 0.411ms returns FALSE
T6DCC 000:999.097 JLINK_HasError()
T6DCC 001:000.548 JLINK_IsHalted()
T6DCC 001:001.089 - 0.541ms returns FALSE
T6DCC 001:001.192 JLINK_HasError()
T6DCC 001:007.590 JLINK_IsHalted()
T6DCC 001:008.121 - 0.530ms returns FALSE
T6DCC 001:008.231 JLINK_HasError()
T6DCC 001:009.618 JLINK_IsHalted()
T6DCC 001:010.162 - 0.542ms returns FALSE
T6DCC 001:010.256 JLINK_HasError()
T6DCC 001:011.590 JLINK_IsHalted()
T6DCC 001:012.014 - 0.422ms returns FALSE
T6DCC 001:012.117 JLINK_HasError()
T6DCC 001:013.594 JLINK_IsHalted()
T6DCC 001:015.808 - 2.212ms returns TRUE
T6DCC 001:015.942 JLINK_ReadReg(R15 (PC))
T6DCC 001:016.041   CPU_ReadMem(4 bytes @ 0xE000EE08)
T6DCC 001:016.553 - 0.610ms returns 0x20000000
T6DCC 001:016.677 JLINK_ClrBPEx(BPHandle = 0x00000007)
T6DCC 001:016.767 - 0.090ms returns 0x00
T6DCC 001:016.854 JLINK_ReadReg(R0)
T6DCC 001:016.939 - 0.084ms returns 0x00000000
T6DCC 001:019.199 JLINK_WriteMem(0x2000031C, 0xE4 Bytes, ...)
T6DCC 001:019.372   Data:  01 F0 8E FB 06 98 0B 99 10 9A 40 23 04 93 01 F0 ...
T6DCC 001:019.529   CPU_WriteMem(228 bytes @ 0x2000031C)
T6DCC 001:021.010 - 1.811ms returns 0xE4
T6DCC 001:021.116 JLINK_WriteMem(0x20000400, 0x31C Bytes, ...)
T6DCC 001:021.218   Data:  87 FE 80 BD 81 B0 01 46 68 46 01 70 00 78 82 00 ...
T6DCC 001:021.358   CPU_WriteMem(796 bytes @ 0x20000400)
T6DCC 001:024.434 - 3.316ms returns 0x31C
T6DCC 001:024.656 JLINK_HasError()
T6DCC 001:024.782 JLINK_WriteReg(R0, 0x08000C00)
T6DCC 001:024.916 - 0.134ms returns 0
T6DCC 001:025.028 JLINK_WriteReg(R1, 0x00000400)
T6DCC 001:025.141 - 0.113ms returns 0
T6DCC 001:025.251 JLINK_WriteReg(R2, 0x2000031C)
T6DCC 001:025.363 - 0.112ms returns 0
T6DCC 001:025.481 JLINK_WriteReg(R3, 0x00000000)
T6DCC 001:025.589 - 0.108ms returns 0
T6DCC 001:025.702 JLINK_WriteReg(R4, 0x00000000)
T6DCC 001:026.210 - 0.505ms returns 0
T6DCC 001:026.396 JLINK_WriteReg(R5, 0x00000000)
T6DCC 001:026.521 - 0.125ms returns 0
T6DCC 001:026.650 JLINK_WriteReg(R6, 0x00000000)
T6DCC 001:026.768 - 0.117ms returns 0
T6DCC 001:026.886 JLINK_WriteReg(R7, 0x00000000)
T6DCC 001:026.998 - 0.112ms returns 0
T6DCC 001:027.110 JLINK_WriteReg(R8, 0x00000000)
T6DCC 001:027.218 - 0.108ms returns 0
T6DCC 001:027.338 JLINK_WriteReg(R9, 0x20000318)
T6DCC 001:027.448 - 0.110ms returns 0
T6DCC 001:027.564 JLINK_WriteReg(R10, 0x00000000)
T6DCC 001:027.681 - 0.116ms returns 0
T6DCC 001:027.802 JLINK_WriteReg(R11, 0x00000000)
T6DCC 001:027.934 - 0.131ms returns 0
T6DCC 001:028.051 JLINK_WriteReg(R12, 0x00000000)
T6DCC 001:028.165 - 0.113ms returns 0
T6DCC 001:028.288 JLINK_WriteReg(R13 (SP), 0x20001000)
T6DCC 001:028.404 - 0.116ms returns 0
T6DCC 001:028.520 JLINK_WriteReg(R14, 0x20000001)
T6DCC 001:028.631 - 0.113ms returns 0
T6DCC 001:028.741 JLINK_WriteReg(R15 (PC), 0x20000238)
T6DCC 001:028.856 - 0.115ms returns 0
T6DCC 001:028.979 JLINK_WriteReg(XPSR, 0x01000000)
T6DCC 001:029.086 - 0.106ms returns 0
T6DCC 001:029.198 JLINK_WriteReg(MSP, 0x20001000)
T6DCC 001:029.307 - 0.109ms returns 0
T6DCC 001:029.420 JLINK_WriteReg(PSP, 0x20001000)
T6DCC 001:029.531 - 0.110ms returns 0
T6DCC 001:029.644 JLINK_WriteReg(CFBP, 0x00000000)
T6DCC 001:029.762 - 0.118ms returns 0
T6DCC 001:029.888 JLINK_SetBPEx(Addr = 0x20000000, Type = 0xFFFFFFF2)
T6DCC 001:030.012 - 0.125ms returns 0x00000008
T6DCC 001:030.132 JLINK_Go()
T6DCC 001:030.262   CPU_WriteMem(4 bytes @ 0xE0002000)
T6DCC 001:031.039   CPU_ReadMem(4 bytes @ 0xE0001000)
T6DCC 001:034.111 - 3.977ms
T6DCC 001:034.315 JLINK_IsHalted()
T6DCC 001:034.812 - 0.496ms returns FALSE
T6DCC 001:034.960 JLINK_HasError()
T6DCC 001:036.597 JLINK_IsHalted()
T6DCC 001:037.131 - 0.533ms returns FALSE
T6DCC 001:037.249 JLINK_HasError()
T6DCC 001:038.598 JLINK_IsHalted()
T6DCC 001:039.104 - 0.506ms returns FALSE
T6DCC 001:039.274 JLINK_HasError()
T6DCC 001:040.598 JLINK_IsHalted()
T6DCC 001:041.131 - 0.532ms returns FALSE
T6DCC 001:041.259 JLINK_HasError()
T6DCC 001:042.600 JLINK_IsHalted()
T6DCC 001:043.125 - 0.523ms returns FALSE
T6DCC 001:043.249 JLINK_HasError()
T6DCC 001:044.606 JLINK_IsHalted()
T6DCC 001:045.121 - 0.515ms returns FALSE
T6DCC 001:045.228 JLINK_HasError()
T6DCC 001:046.597 JLINK_IsHalted()
T6DCC 001:047.125 - 0.528ms returns FALSE
T6DCC 001:047.234 JLINK_HasError()
T6DCC 001:048.572 JLINK_IsHalted()
T6DCC 001:049.023 - 0.450ms returns FALSE
T6DCC 001:049.135 JLINK_HasError()
T6DCC 001:050.628 JLINK_IsHalted()
T6DCC 001:052.835 - 2.206ms returns TRUE
T6DCC 001:052.991 JLINK_ReadReg(R15 (PC))
T6DCC 001:053.092   CPU_ReadMem(4 bytes @ 0xE000EE08)
T6DCC 001:053.555 - 0.563ms returns 0x20000000
T6DCC 001:053.662 JLINK_ClrBPEx(BPHandle = 0x00000008)
T6DCC 001:053.756 - 0.093ms returns 0x00
T6DCC 001:053.845 JLINK_ReadReg(R0)
T6DCC 001:053.940 - 0.095ms returns 0x00000000
T6DCC 001:055.218 JLINK_WriteMem(0x2000031C, 0xE4 Bytes, ...)
T6DCC 001:055.311   Data:  05 00 00 20 85 33 00 08 B1 32 00 08 2F 32 00 08 ...
T6DCC 001:055.405   CPU_WriteMem(228 bytes @ 0x2000031C)
T6DCC 001:056.717 - 1.500ms returns 0xE4
T6DCC 001:056.796 JLINK_WriteMem(0x20000400, 0x31C Bytes, ...)
T6DCC 001:056.856   Data:  03 99 C8 60 01 20 01 90 02 E0 00 20 01 90 FF E7 ...
T6DCC 001:056.949   CPU_WriteMem(796 bytes @ 0x20000400)
T6DCC 001:059.935 - 3.137ms returns 0x31C
T6DCC 001:060.109 JLINK_HasError()
T6DCC 001:060.200 JLINK_WriteReg(R0, 0x08001000)
T6DCC 001:060.298 - 0.097ms returns 0
T6DCC 001:060.389 JLINK_WriteReg(R1, 0x00000400)
T6DCC 001:060.476 - 0.087ms returns 0
T6DCC 001:060.566 JLINK_WriteReg(R2, 0x2000031C)
T6DCC 001:060.654 - 0.088ms returns 0
T6DCC 001:060.745 JLINK_WriteReg(R3, 0x00000000)
T6DCC 001:060.833 - 0.088ms returns 0
T6DCC 001:060.923 JLINK_WriteReg(R4, 0x00000000)
T6DCC 001:061.010 - 0.087ms returns 0
T6DCC 001:061.101 JLINK_WriteReg(R5, 0x00000000)
T6DCC 001:061.191 - 0.089ms returns 0
T6DCC 001:061.283 JLINK_WriteReg(R6, 0x00000000)
T6DCC 001:061.387 - 0.104ms returns 0
T6DCC 001:061.491 JLINK_WriteReg(R7, 0x00000000)
T6DCC 001:061.579 - 0.088ms returns 0
T6DCC 001:061.716 JLINK_WriteReg(R8, 0x00000000)
T6DCC 001:061.803 - 0.087ms returns 0
T6DCC 001:061.896 JLINK_WriteReg(R9, 0x20000318)
T6DCC 001:061.987 - 0.091ms returns 0
T6DCC 001:062.091 JLINK_WriteReg(R10, 0x00000000)
T6DCC 001:062.180 - 0.089ms returns 0
T6DCC 001:062.268 JLINK_WriteReg(R11, 0x00000000)
T6DCC 001:062.355 - 0.087ms returns 0
T6DCC 001:062.442 JLINK_WriteReg(R12, 0x00000000)
T6DCC 001:062.531 - 0.088ms returns 0
T6DCC 001:062.631 JLINK_WriteReg(R13 (SP), 0x20001000)
T6DCC 001:062.730 - 0.099ms returns 0
T6DCC 001:062.828 JLINK_WriteReg(R14, 0x20000001)
T6DCC 001:062.913 - 0.085ms returns 0
T6DCC 001:063.003 JLINK_WriteReg(R15 (PC), 0x20000238)
T6DCC 001:063.097 - 0.095ms returns 0
T6DCC 001:063.231 JLINK_WriteReg(XPSR, 0x01000000)
T6DCC 001:063.315 - 0.084ms returns 0
T6DCC 001:063.409 JLINK_WriteReg(MSP, 0x20001000)
T6DCC 001:063.495 - 0.086ms returns 0
T6DCC 001:063.582 JLINK_WriteReg(PSP, 0x20001000)
T6DCC 001:063.672 - 0.090ms returns 0
T6DCC 001:063.759 JLINK_WriteReg(CFBP, 0x00000000)
T6DCC 001:063.844 - 0.085ms returns 0
T6DCC 001:063.930 JLINK_SetBPEx(Addr = 0x20000000, Type = 0xFFFFFFF2)
T6DCC 001:064.014 - 0.084ms returns 0x00000009
T6DCC 001:064.098 JLINK_Go()
T6DCC 001:064.184   CPU_WriteMem(4 bytes @ 0xE0002000)
T6DCC 001:064.683   CPU_ReadMem(4 bytes @ 0xE0001000)
T6DCC 001:067.164 - 3.065ms
T6DCC 001:067.338 JLINK_IsHalted()
T6DCC 001:067.765 - 0.426ms returns FALSE
T6DCC 001:067.878 JLINK_HasError()
T6DCC 001:069.190 JLINK_IsHalted()
T6DCC 001:069.634 - 0.443ms returns FALSE
T6DCC 001:069.741 JLINK_HasError()
T6DCC 001:071.192 JLINK_IsHalted()
T6DCC 001:071.621 - 0.429ms returns FALSE
T6DCC 001:071.732 JLINK_HasError()
T6DCC 001:073.174 JLINK_IsHalted()
T6DCC 001:073.596 - 0.422ms returns FALSE
T6DCC 001:073.686 JLINK_HasError()
T6DCC 001:075.207 JLINK_IsHalted()
T6DCC 001:075.598 - 0.390ms returns FALSE
T6DCC 001:075.675 JLINK_HasError()
T6DCC 001:077.217 JLINK_IsHalted()
T6DCC 001:077.701 - 0.482ms returns FALSE
T6DCC 001:077.810 JLINK_HasError()
T6DCC 001:079.192 JLINK_IsHalted()
T6DCC 001:079.692 - 0.498ms returns FALSE
T6DCC 001:079.837 JLINK_HasError()
T6DCC 001:081.189 JLINK_IsHalted()
T6DCC 001:081.718 - 0.528ms returns FALSE
T6DCC 001:081.849 JLINK_HasError()
T6DCC 001:083.172 JLINK_IsHalted()
T6DCC 001:083.573 - 0.400ms returns FALSE
T6DCC 001:083.663 JLINK_HasError()
T6DCC 001:085.204 JLINK_IsHalted()
T6DCC 001:087.201 - 1.996ms returns TRUE
T6DCC 001:087.332 JLINK_ReadReg(R15 (PC))
T6DCC 001:087.414   CPU_ReadMem(4 bytes @ 0xE000EE08)
T6DCC 001:087.812 - 0.479ms returns 0x20000000
T6DCC 001:087.987 JLINK_ClrBPEx(BPHandle = 0x00000009)
T6DCC 001:088.064 - 0.077ms returns 0x00
T6DCC 001:088.135 JLINK_ReadReg(R0)
T6DCC 001:088.219 - 0.084ms returns 0x00000000
T6DCC 001:089.338 JLINK_WriteMem(0x2000031C, 0xE4 Bytes, ...)
T6DCC 001:089.474   Data:  D4 34 00 08 81 B0 01 46 68 46 01 70 00 21 40 56 ...
T6DCC 001:089.635   CPU_WriteMem(228 bytes @ 0x2000031C)
T6DCC 001:091.034 - 1.696ms returns 0xE4
T6DCC 001:091.193 JLINK_WriteMem(0x20000400, 0x31C Bytes, ...)
T6DCC 001:091.280   Data:  A0 43 00 9C A4 01 E4 B2 AC 40 20 43 19 40 88 50 ...
T6DCC 001:091.420   CPU_WriteMem(796 bytes @ 0x20000400)
T6DCC 001:094.536 - 3.341ms returns 0x31C
T6DCC 001:094.722 JLINK_HasError()
T6DCC 001:094.822 JLINK_WriteReg(R0, 0x08001400)
T6DCC 001:094.923 - 0.100ms returns 0
T6DCC 001:095.017 JLINK_WriteReg(R1, 0x00000400)
T6DCC 001:095.109 - 0.091ms returns 0
T6DCC 001:095.208 JLINK_WriteReg(R2, 0x2000031C)
T6DCC 001:095.290 - 0.082ms returns 0
T6DCC 001:095.436 JLINK_WriteReg(R3, 0x00000000)
T6DCC 001:095.534 - 0.097ms returns 0
T6DCC 001:095.622 JLINK_WriteReg(R4, 0x00000000)
T6DCC 001:095.704 - 0.082ms returns 0
T6DCC 001:095.795 JLINK_WriteReg(R5, 0x00000000)
T6DCC 001:095.883 - 0.088ms returns 0
T6DCC 001:095.972 JLINK_WriteReg(R6, 0x00000000)
T6DCC 001:096.081 - 0.108ms returns 0
T6DCC 001:096.180 JLINK_WriteReg(R7, 0x00000000)
T6DCC 001:096.286 - 0.105ms returns 0
T6DCC 001:096.376 JLINK_WriteReg(R8, 0x00000000)
T6DCC 001:096.462 - 0.086ms returns 0
T6DCC 001:096.554 JLINK_WriteReg(R9, 0x20000318)
T6DCC 001:096.646 - 0.091ms returns 0
T6DCC 001:096.739 JLINK_WriteReg(R10, 0x00000000)
T6DCC 001:096.830 - 0.090ms returns 0
T6DCC 001:096.920 JLINK_WriteReg(R11, 0x00000000)
T6DCC 001:097.005 - 0.085ms returns 0
T6DCC 001:097.114 JLINK_WriteReg(R12, 0x00000000)
T6DCC 001:097.216 - 0.101ms returns 0
T6DCC 001:097.347 JLINK_WriteReg(R13 (SP), 0x20001000)
T6DCC 001:097.437 - 0.090ms returns 0
T6DCC 001:097.527 JLINK_WriteReg(R14, 0x20000001)
T6DCC 001:097.612 - 0.085ms returns 0
T6DCC 001:097.704 JLINK_WriteReg(R15 (PC), 0x20000238)
T6DCC 001:097.788 - 0.084ms returns 0
T6DCC 001:097.891 JLINK_WriteReg(XPSR, 0x01000000)
T6DCC 001:097.975 - 0.084ms returns 0
T6DCC 001:098.061 JLINK_WriteReg(MSP, 0x20001000)
T6DCC 001:098.146 - 0.085ms returns 0
T6DCC 001:098.262 JLINK_WriteReg(PSP, 0x20001000)
T6DCC 001:098.351 - 0.088ms returns 0
T6DCC 001:098.443 JLINK_WriteReg(CFBP, 0x00000000)
T6DCC 001:098.532 - 0.089ms returns 0
T6DCC 001:098.634 JLINK_SetBPEx(Addr = 0x20000000, Type = 0xFFFFFFF2)
T6DCC 001:098.754 - 0.120ms returns 0x0000000A
T6DCC 001:098.843 JLINK_Go()
T6DCC 001:098.935   CPU_WriteMem(4 bytes @ 0xE0002000)
T6DCC 001:099.476   CPU_ReadMem(4 bytes @ 0xE0001000)
T6DCC 001:101.865 - 3.021ms
T6DCC 001:101.987 JLINK_IsHalted()
T6DCC 001:102.350 - 0.362ms returns FALSE
T6DCC 001:102.455 JLINK_HasError()
T6DCC 001:104.146 JLINK_IsHalted()
T6DCC 001:104.546 - 0.400ms returns FALSE
T6DCC 001:104.662 JLINK_HasError()
T6DCC 001:106.208 JLINK_IsHalted()
T6DCC 001:106.665 - 0.456ms returns FALSE
T6DCC 001:106.762 JLINK_HasError()
T6DCC 001:108.208 JLINK_IsHalted()
T6DCC 001:108.616 - 0.407ms returns FALSE
T6DCC 001:108.724 JLINK_HasError()
T6DCC 001:110.768 JLINK_IsHalted()
T6DCC 001:111.224 - 0.454ms returns FALSE
T6DCC 001:111.349 JLINK_HasError()
T6DCC 001:119.074 JLINK_IsHalted()
T6DCC 001:121.312 - 2.238ms returns TRUE
T6DCC 001:121.415 JLINK_ReadReg(R15 (PC))
T6DCC 001:121.507   CPU_ReadMem(4 bytes @ 0xE000EE08)
T6DCC 001:122.007 - 0.592ms returns 0x20000000
T6DCC 001:122.101 JLINK_ClrBPEx(BPHandle = 0x0000000A)
T6DCC 001:122.185 - 0.083ms returns 0x00
T6DCC 001:122.268 JLINK_ReadReg(R0)
T6DCC 001:122.358 - 0.090ms returns 0x00000000
T6DCC 001:123.579 JLINK_WriteMem(0x2000031C, 0xE4 Bytes, ...)
T6DCC 001:123.704   Data:  00 90 00 98 08 60 1A E0 11 49 08 68 00 90 03 AB ...
T6DCC 001:123.882   CPU_WriteMem(228 bytes @ 0x2000031C)
T6DCC 001:125.182 - 1.603ms returns 0xE4
T6DCC 001:125.301 JLINK_WriteMem(0x20000400, 0x31C Bytes, ...)
T6DCC 001:125.394   Data:  FF E7 01 A8 00 78 80 07 00 28 06 D5 FF E7 05 49 ...
T6DCC 001:125.540   CPU_WriteMem(796 bytes @ 0x20000400)
T6DCC 001:128.645 - 3.344ms returns 0x31C
T6DCC 001:128.803 JLINK_HasError()
T6DCC 001:128.894 JLINK_WriteReg(R0, 0x08001800)
T6DCC 001:128.984 - 0.090ms returns 0
T6DCC 001:129.071 JLINK_WriteReg(R1, 0x00000400)
T6DCC 001:129.150 - 0.078ms returns 0
T6DCC 001:129.230 JLINK_WriteReg(R2, 0x2000031C)
T6DCC 001:129.323 - 0.093ms returns 0
T6DCC 001:129.408 JLINK_WriteReg(R3, 0x00000000)
T6DCC 001:129.495 - 0.086ms returns 0
T6DCC 001:129.585 JLINK_WriteReg(R4, 0x00000000)
T6DCC 001:129.677 - 0.092ms returns 0
T6DCC 001:129.776 JLINK_WriteReg(R5, 0x00000000)
T6DCC 001:129.864 - 0.087ms returns 0
T6DCC 001:129.957 JLINK_WriteReg(R6, 0x00000000)
T6DCC 001:130.041 - 0.084ms returns 0
T6DCC 001:130.136 JLINK_WriteReg(R7, 0x00000000)
T6DCC 001:130.230 - 0.093ms returns 0
T6DCC 001:130.323 JLINK_WriteReg(R8, 0x00000000)
T6DCC 001:130.424 - 0.101ms returns 0
T6DCC 001:130.511 JLINK_WriteReg(R9, 0x20000318)
T6DCC 001:130.599 - 0.087ms returns 0
T6DCC 001:130.686 JLINK_WriteReg(R10, 0x00000000)
T6DCC 001:130.770 - 0.085ms returns 0
T6DCC 001:130.859 JLINK_WriteReg(R11, 0x00000000)
T6DCC 001:130.942 - 0.083ms returns 0
T6DCC 001:131.028 JLINK_WriteReg(R12, 0x00000000)
T6DCC 001:131.113 - 0.084ms returns 0
T6DCC 001:131.201 JLINK_WriteReg(R13 (SP), 0x20001000)
T6DCC 001:131.289 - 0.088ms returns 0
T6DCC 001:131.380 JLINK_WriteReg(R14, 0x20000001)
T6DCC 001:131.467 - 0.087ms returns 0
T6DCC 001:131.562 JLINK_WriteReg(R15 (PC), 0x20000238)
T6DCC 001:131.648 - 0.086ms returns 0
T6DCC 001:131.735 JLINK_WriteReg(XPSR, 0x01000000)
T6DCC 001:131.819 - 0.084ms returns 0
T6DCC 001:131.907 JLINK_WriteReg(MSP, 0x20001000)
T6DCC 001:131.990 - 0.083ms returns 0
T6DCC 001:132.078 JLINK_WriteReg(PSP, 0x20001000)
T6DCC 001:132.171 - 0.092ms returns 0
T6DCC 001:132.268 JLINK_WriteReg(CFBP, 0x00000000)
T6DCC 001:132.370 - 0.102ms returns 0
T6DCC 001:132.463 JLINK_SetBPEx(Addr = 0x20000000, Type = 0xFFFFFFF2)
T6DCC 001:132.557 - 0.094ms returns 0x0000000B
T6DCC 001:132.643 JLINK_Go()
T6DCC 001:132.733   CPU_WriteMem(4 bytes @ 0xE0002000)
T6DCC 001:133.282   CPU_ReadMem(4 bytes @ 0xE0001000)
T6DCC 001:135.623 - 2.979ms
T6DCC 001:135.734 JLINK_IsHalted()
T6DCC 001:136.135 - 0.400ms returns FALSE
T6DCC 001:136.236 JLINK_HasError()
T6DCC 001:138.065 JLINK_IsHalted()
T6DCC 001:138.470 - 0.405ms returns FALSE
T6DCC 001:138.561 JLINK_HasError()
T6DCC 001:140.057 JLINK_IsHalted()
T6DCC 001:140.435 - 0.377ms returns FALSE
T6DCC 001:140.535 JLINK_HasError()
T6DCC 001:142.013 JLINK_IsHalted()
T6DCC 001:142.502 - 0.488ms returns FALSE
T6DCC 001:142.618 JLINK_HasError()
T6DCC 001:144.008 JLINK_IsHalted()
T6DCC 001:144.538 - 0.529ms returns FALSE
T6DCC 001:144.676 JLINK_HasError()
T6DCC 001:146.388 JLINK_IsHalted()
T6DCC 001:146.862 - 0.473ms returns FALSE
T6DCC 001:146.974 JLINK_HasError()
T6DCC 001:148.395 JLINK_IsHalted()
T6DCC 001:148.858 - 0.462ms returns FALSE
T6DCC 001:148.978 JLINK_HasError()
T6DCC 001:150.446 JLINK_IsHalted()
T6DCC 001:151.018 - 0.572ms returns FALSE
T6DCC 001:151.116 JLINK_HasError()
T6DCC 001:152.423 JLINK_IsHalted()
T6DCC 001:154.475 - 2.052ms returns TRUE
T6DCC 001:154.571 JLINK_ReadReg(R15 (PC))
T6DCC 001:154.673   CPU_ReadMem(4 bytes @ 0xE000EE08)
T6DCC 001:155.119 - 0.548ms returns 0x20000000
T6DCC 001:155.239 JLINK_ClrBPEx(BPHandle = 0x0000000B)
T6DCC 001:155.334 - 0.095ms returns 0x00
T6DCC 001:155.442 JLINK_ReadReg(R0)
T6DCC 001:155.535 - 0.093ms returns 0x00000000
T6DCC 001:157.355 JLINK_WriteMem(0x2000031C, 0xE4 Bytes, ...)
T6DCC 001:157.520   Data:  1E 21 0B 40 00 78 14 21 41 43 3D 4A 88 58 18 43 ...
T6DCC 001:157.663   CPU_WriteMem(228 bytes @ 0x2000031C)
T6DCC 001:159.021 - 1.665ms returns 0xE4
T6DCC 001:159.189 JLINK_WriteMem(0x20000400, 0x31C Bytes, ...)
T6DCC 001:159.275   Data:  01 20 08 70 03 E0 03 A9 00 20 08 70 FF E7 03 A8 ...
T6DCC 001:159.467   CPU_WriteMem(796 bytes @ 0x20000400)
T6DCC 001:162.675 - 3.485ms returns 0x31C
T6DCC 001:162.794 JLINK_HasError()
T6DCC 001:162.889 JLINK_WriteReg(R0, 0x08001C00)
T6DCC 001:162.980 - 0.091ms returns 0
T6DCC 001:163.067 JLINK_WriteReg(R1, 0x00000400)
T6DCC 001:163.148 - 0.083ms returns 0
T6DCC 001:163.239 JLINK_WriteReg(R2, 0x2000031C)
T6DCC 001:163.320 - 0.081ms returns 0
T6DCC 001:163.423 JLINK_WriteReg(R3, 0x00000000)
T6DCC 001:163.519 - 0.095ms returns 0
T6DCC 001:163.608 JLINK_WriteReg(R4, 0x00000000)
T6DCC 001:163.689 - 0.081ms returns 0
T6DCC 001:163.773 JLINK_WriteReg(R5, 0x00000000)
T6DCC 001:163.865 - 0.091ms returns 0
T6DCC 001:163.951 JLINK_WriteReg(R6, 0x00000000)
T6DCC 001:164.030 - 0.079ms returns 0
T6DCC 001:164.119 JLINK_WriteReg(R7, 0x00000000)
T6DCC 001:164.202 - 0.083ms returns 0
T6DCC 001:164.295 JLINK_WriteReg(R8, 0x00000000)
T6DCC 001:164.384 - 0.089ms returns 0
